!Agilent Technologies,N5221A,MY51411109,A.09.90.13
!Agilent N5221A: A.09.90.13
!Date: Wednesday, May 04, 2022 13:03:51
!Correction: S11(Full 1 Port(1)) 
!S1P File: Measurement: S11:
# Hz S  RI   R 50
2061845146 0.53206593 -0.85585064
2061849052.25 0.53202927 -0.85590458
2061852958.5 0.53201693 -0.8559252
2061856864.75 0.53198278 -0.85584939
2061860771 0.53195196 -0.85588855
2061864677.25 0.53187609 -0.85586429
2061868583.5 0.53183061 -0.85599738
2061872489.75 0.53177142 -0.85595924
2061876396 0.5317263 -0.85611707
2061880302.25 0.53169286 -0.85624373
2061884208.5 0.53165549 -0.85619301
2061888114.75 0.53165692 -0.85621327
2061892021 0.53164303 -0.85618317
2061895927.25 0.53149301 -0.85628927
2061899833.5 0.53149986 -0.85627282
2061903739.75 0.53145677 -0.85625547
2061907646 0.53150487 -0.8562693
2061911552.25 0.53138655 -0.85630012
2061915458.5 0.53147125 -0.85634583
2061919364.75 0.53140408 -0.85637873
2061923271 0.53134817 -0.85633504
2061927177.25 0.53121501 -0.85632175
2061931083.5 0.53120172 -0.85635483
2061934989.75 0.53119868 -0.85644448
2061938896 0.53110826 -0.85646409
2061942802.25 0.53103 -0.85646546
2061946708.5 0.53100139 -0.85642678
2061950614.75 0.53090209 -0.85640138
2061954521 0.53088838 -0.85642833
2061958427.25 0.53090471 -0.85652286
2061962333.5 0.5308578 -0.85654759
2061966239.75 0.53081012 -0.85651404
2061970146 0.53069353 -0.85648048
2061974052.25 0.53068018 -0.8565492
2061977958.5 0.53072178 -0.85661387
2061981864.75 0.53059369 -0.85670865
2061985771 0.53054965 -0.85674161
2061989677.25 0.53041261 -0.856709
2061993583.5 0.53044468 -0.85676861
2061997489.75 0.53042471 -0.85677695
2062001396 0.53034139 -0.8568061
2062005302.25 0.53031784 -0.85686898
2062009208.5 0.5303278 -0.85687113
2062013114.75 0.53023356 -0.85686004
2062017021 0.53016323 -0.85686785
2062020927.25 0.53013808 -0.85684907
2062024833.5 0.53017551 -0.85688585
2062028739.75 0.5300501 -0.85697305
2062032646 0.52995104 -0.85697436
2062036552.25 0.53001457 -0.85702008
2062040458.5 0.52998656 -0.85699731
2062044364.75 0.52989864 -0.85702866
2062048271 0.52990115 -0.85715026
2062052177.25 0.52988505 -0.85714614
2062056083.5 0.52979428 -0.85713738
2062059989.75 0.5297783 -0.8571434
2062063896 0.52979767 -0.85726887
2062067802.25 0.52972978 -0.8572377
2062071708.5 0.52976036 -0.85732907
2062075614.75 0.52966738 -0.85731936
2062079521 0.52958137 -0.85729247
2062083427.25 0.5295341 -0.85737896
2062087333.5 0.52951902 -0.85739195
2062091239.75 0.52950269 -0.85735697
2062095146 0.52938789 -0.85739702
2062099052.25 0.5293687 -0.85742754
2062102958.5 0.52938819 -0.85744244
2062106864.75 0.5294106 -0.8575452
2062110771 0.52931249 -0.85755038
2062114677.25 0.52927268 -0.85762978
2062118583.5 0.52921373 -0.85752904
2062122489.75 0.52914727 -0.85762739
2062126396 0.52911639 -0.85760653
2062130302.25 0.52905399 -0.85760742
2062134208.5 0.52905649 -0.85774189
2062138114.75 0.5290274 -0.85775
2062142021 0.52897197 -0.85781103
2062145927.25 0.5289098 -0.85773891
2062149833.5 0.52895993 -0.8578279
2062153739.75 0.52884644 -0.85780483
2062157646 0.52879274 -0.85782963
2062161552.25 0.52869982 -0.8578496
2062165458.5 0.52868909 -0.85786158
2062169364.75 0.52868313 -0.85788155
2062173271 0.52866304 -0.85798615
2062177177.25 0.52854174 -0.85789227
2062181083.5 0.52846795 -0.85791409
2062184989.75 0.52844846 -0.85792935
2062188896 0.52834719 -0.85804945
2062192802.25 0.52840209 -0.85801715
2062196708.5 0.52834034 -0.85811049
2062200614.75 0.52838004 -0.85811651
2062204521 0.52829176 -0.85814458
2062208427.25 0.52822417 -0.85818994
2062212333.5 0.52823311 -0.85820466
2062216239.75 0.52817518 -0.8582474
2062220146 0.52809709 -0.85825866
2062224052.25 0.52811688 -0.85831589
2062227958.5 0.52794731 -0.85828382
2062231864.75 0.52792859 -0.85830158
2062235771 0.52795815 -0.85830396
2062239677.25 0.52797681 -0.85832924
2062243583.5 0.52781719 -0.85835379
2062247489.75 0.52787942 -0.85843319
2062251396 0.52772474 -0.85839593
2062255302.25 0.52774078 -0.85847837
2062259208.5 0.52776301 -0.85844451
2062263114.75 0.52766556 -0.85843503
2062267021 0.52766788 -0.85845333
2062270927.25 0.52760482 -0.8585735
2062274833.5 0.52754879 -0.85863245
2062278739.75 0.52748579 -0.858724
2062282646 0.52742022 -0.8586067
2062286552.25 0.52737844 -0.85871017
2062290458.5 0.52740037 -0.85874832
2062294364.75 0.52729392 -0.85866487
2062298271 0.52730334 -0.85866839
2062302177.25 0.52724051 -0.85875064
2062306083.5 0.52719694 -0.85881448
2062309989.75 0.52721995 -0.85885125
2062313896 0.52715027 -0.85886151
2062317802.25 0.52713865 -0.85882181
2062321708.5 0.52700764 -0.85895681
2062325614.75 0.52702188 -0.85892791
2062329521 0.52699143 -0.85904402
2062333427.25 0.52695143 -0.85899854
2062337333.5 0.52695489 -0.85902637
2062341239.75 0.52692986 -0.85899079
2062345146 0.52686387 -0.85910881
2062349052.25 0.52676141 -0.85904729
2062352958.5 0.52669388 -0.85904461
2062356864.75 0.52658862 -0.85908723
2062360771 0.52660215 -0.85900241
2062364677.25 0.52660245 -0.85906714
2062368583.5 0.5265792 -0.85903621
2062372489.75 0.52656174 -0.85916454
2062376396 0.52644044 -0.85922915
2062380302.25 0.52638465 -0.85922831
2062384208.5 0.5263716 -0.85927355
2062388114.75 0.52626926 -0.85925752
2062392021 0.52627456 -0.85935456
2062395927.25 0.52623081 -0.85937512
2062399833.5 0.52625668 -0.85942423
2062403739.75 0.52615762 -0.85939115
2062407646 0.52615935 -0.85937512
2062411552.25 0.5260368 -0.85942078
2062415458.5 0.52601761 -0.85940117
2062419364.75 0.52595091 -0.85953158
2062423271 0.52592641 -0.85949391
2062427177.25 0.52585679 -0.85953361
2062431083.5 0.52575368 -0.859613
2062434989.75 0.52579939 -0.85966253
2062438896 0.52574152 -0.85960853
2062442802.25 0.52562404 -0.85969824
2062446708.5 0.52563852 -0.85968578
2062450614.75 0.52564591 -0.85976893
2062454521 0.52560878 -0.85976857
2062458427.25 0.52556491 -0.85972464
2062462333.5 0.52552271 -0.85974991
2062466239.75 0.52550668 -0.85977852
2062470146 0.52550137 -0.85977823
2062474052.25 0.52538913 -0.85983276
2062477958.5 0.52541059 -0.85982567
2062481864.75 0.52531594 -0.85987079
2062485771 0.52532977 -0.8599475
2062489677.25 0.52528518 -0.85990202
2062493583.5 0.52524126 -0.85991508
2062497489.75 0.52515894 -0.86006624
2062501396 0.52518332 -0.86008447
2062505302.25 0.52507263 -0.86000252
2062509208.5 0.52509773 -0.86006838
2062513114.75 0.52500355 -0.86005831
2062517021 0.5249725 -0.8601222
2062520927.25 0.52487671 -0.86016941
2062524833.5 0.52488458 -0.86016017
2062528739.75 0.52479053 -0.86024803
2062532646 0.52480698 -0.86024249
2062536552.25 0.5247308 -0.86036932
2062540458.5 0.52472997 -0.86038476
2062544364.75 0.52474016 -0.86040711
2062548271 0.52466869 -0.86033571
2062552177.25 0.52461994 -0.86040705
2062556083.5 0.52446604 -0.86035138
2062559989.75 0.52449393 -0.86044282
2062563896 0.5244897 -0.86053544
2062567802.25 0.5244475 -0.86051023
2062571708.5 0.52435565 -0.86051911
2062575614.75 0.52434522 -0.86051214
2062579521 0.52426445 -0.86045742
2062583427.25 0.52414906 -0.86052608
2062587333.5 0.52413428 -0.86054569
2062591239.75 0.52403831 -0.86059171
2062595146 0.5240761 -0.86064285
2062599052.25 0.5240854 -0.86064702
2062602958.5 0.52404475 -0.86078471
2062606864.75 0.5238952 -0.86071616
2062610771 0.52394289 -0.86081302
2062614677.25 0.52391964 -0.86079347
2062618583.5 0.52382529 -0.86080754
2062622489.75 0.52374589 -0.86077219
2062626396 0.52381074 -0.86083359
2062630302.25 0.52368045 -0.86092174
2062634208.5 0.52368206 -0.86087996
2062638114.75 0.52359313 -0.86098117
2062642021 0.52357298 -0.86107743
2062645927.25 0.52358609 -0.86100167
2062649833.5 0.52346176 -0.86106443
2062653739.75 0.52343035 -0.86106569
2062657646 0.52335709 -0.86114264
2062661552.25 0.52338928 -0.86106706
2062665458.5 0.52335793 -0.86111981
2062669364.75 0.52328795 -0.86124122
2062673271 0.52327824 -0.86120462
2062677177.25 0.52320403 -0.86116725
2062681083.5 0.52311748 -0.86128056
2062684989.75 0.52309632 -0.86121249
2062688896 0.52304977 -0.86128736
2062692802.25 0.52297729 -0.8613677
2062696708.5 0.52285957 -0.86128312
2062700614.75 0.52293253 -0.86137974
2062704521 0.52282536 -0.86134756
2062708427.25 0.52281994 -0.86134374
2062712333.5 0.52274084 -0.86135787
2062716239.75 0.52266574 -0.86149633
2062720146 0.52262706 -0.86147279
2062724052.25 0.52261674 -0.86159581
2062727958.5 0.52260053 -0.86160868
2062731864.75 0.52254736 -0.86161637
2062735771 0.5224756 -0.86166966
2062739677.25 0.52243859 -0.86163539
2062743583.5 0.52242523 -0.86169773
2062747489.75 0.52235264 -0.86170119
2062751396 0.52235323 -0.86172932
2062755302.25 0.52230507 -0.86178821
2062759208.5 0.52225387 -0.86185223
2062763114.75 0.52222008 -0.86180466
2062767021 0.5221681 -0.86186439
2062770927.25 0.52207184 -0.8618573
2062774833.5 0.52212989 -0.86195183
2062778739.75 0.52204901 -0.86193711
2062782646 0.52193749 -0.86197531
2062786552.25 0.521878 -0.86191946
2062790458.5 0.52193534 -0.86198312
2062794364.75 0.52183336 -0.86207879
2062798271 0.52185869 -0.8621099
2062802177.25 0.52179015 -0.8621093
2062806083.5 0.5217846 -0.8621546
2062809989.75 0.52170455 -0.86211234
2062813896 0.52164537 -0.86217278
2062817802.25 0.52160555 -0.86224389
2062821708.5 0.5215444 -0.86220914
2062825614.75 0.52157706 -0.86222672
2062829521 0.52151304 -0.86225748
2062833427.25 0.52145112 -0.86230648
2062837333.5 0.52146262 -0.86229849
2062841239.75 0.52125847 -0.8623457
2062845146 0.52128625 -0.86236167
2062849052.25 0.52124041 -0.86244029
2062852958.5 0.52129996 -0.86246759
2062856864.75 0.52122867 -0.86241418
2062860771 0.52120483 -0.86239165
2062864677.25 0.52106643 -0.86248583
2062868583.5 0.52108115 -0.86253262
2062872489.75 0.52093548 -0.86251444
2062876396 0.52092797 -0.86257392
2062880302.25 0.5209136 -0.86261326
2062884208.5 0.52091432 -0.86258829
2062888114.75 0.52084792 -0.86267799
2062892021 0.52072996 -0.86265767
2062895927.25 0.52070159 -0.86270797
2062899833.5 0.52071172 -0.86271912
2062903739.75 0.5206759 -0.8627764
2062907646 0.52055204 -0.86270773
2062911552.25 0.52051735 -0.86279476
2062915458.5 0.52049989 -0.86282253
2062919364.75 0.52043986 -0.86284655
2062923271 0.5203619 -0.8628366
2062927177.25 0.5203228 -0.86285508
2062931083.5 0.52029979 -0.86287665
2062934989.75 0.52027881 -0.8628915
2062938896 0.5202871 -0.86288601
2062942802.25 0.52022773 -0.86289668
2062946708.5 0.52016604 -0.86298895
2062950614.75 0.52014041 -0.86299396
2062954521 0.52012664 -0.86299622
2062958427.25 0.51994902 -0.86300862
2062962333.5 0.52000362 -0.86306441
2062966239.75 0.51995099 -0.86310339
2062970146 0.51987147 -0.86316973
2062974052.25 0.51985955 -0.8632111
2062977958.5 0.51982492 -0.86320883
2062981864.75 0.51976222 -0.86322534
2062985771 0.5197323 -0.86326092
2062989677.25 0.51975107 -0.86326879
2062993583.5 0.51964921 -0.86338031
2062997489.75 0.51967734 -0.86341232
2063001396 0.5195846 -0.86336583
2063005302.25 0.51957053 -0.86344153
2063009208.5 0.5194481 -0.86347306
2063013114.75 0.51937109 -0.86341661
2063017021 0.5194149 -0.86347908
2063020927.25 0.51933485 -0.86362332
2063024833.5 0.5192849 -0.86354566
2063028739.75 0.51927191 -0.86352444
2063032646 0.51927948 -0.86359268
2063036552.25 0.51923621 -0.86369133
2063040458.5 0.51902848 -0.86364204
2063044364.75 0.51903528 -0.86368597
2063048271 0.51905626 -0.86375558
2063052177.25 0.51898009 -0.86382908
2063056083.5 0.51892209 -0.86386049
2063059989.75 0.51890296 -0.86385268
2063063896 0.51882941 -0.86393511
2063067802.25 0.51887733 -0.86397624
2063071708.5 0.51880568 -0.86398035
2063075614.75 0.51871365 -0.86403489
2063079521 0.51866955 -0.86399156
2063083427.25 0.51868957 -0.86405224
2063087333.5 0.51864296 -0.86412257
2063091239.75 0.51860058 -0.86416036
2063095146 0.51853549 -0.86414278
2063099052.25 0.5184539 -0.86418378
2063102958.5 0.51835978 -0.86416566
2063106864.75 0.51840013 -0.86422366
2063110771 0.51838875 -0.86424315
2063114677.25 0.5183692 -0.8642149
2063118583.5 0.51834375 -0.86432123
2063122489.75 0.51823503 -0.86428416
2063126396 0.51823628 -0.86435878
2063130302.25 0.51816869 -0.86437428
2063134208.5 0.5181061 -0.86440516
2063138114.75 0.51809239 -0.8644278
2063142021 0.51800674 -0.86449558
2063145927.25 0.51796383 -0.86446667
2063149833.5 0.51786667 -0.86448652
2063153739.75 0.51788867 -0.86454856
2063157646 0.51778275 -0.86453843
2063161552.25 0.51780564 -0.8646155
2063165458.5 0.51774704 -0.86462891
2063169364.75 0.51770669 -0.86471516
2063173271 0.51763594 -0.86476135
2063177177.25 0.5175997 -0.86480361
2063181083.5 0.5175482 -0.86476815
2063184989.75 0.51750571 -0.86474127
2063188896 0.51744252 -0.86475521
2063192802.25 0.51736599 -0.86479551
2063196708.5 0.51738262 -0.86474925
2063200614.75 0.51742178 -0.8648746
2063204521 0.51735842 -0.86489838
2063208427.25 0.51724875 -0.86485988
2063212333.5 0.51716375 -0.86489141
2063216239.75 0.51713395 -0.86488599
2063220146 0.51707762 -0.86499339
2063224052.25 0.51699424 -0.8650713
2063227958.5 0.51697671 -0.86507678
2063231864.75 0.51689297 -0.8650924
2063235771 0.51685995 -0.86501145
2063239677.25 0.51686764 -0.86505204
2063243583.5 0.51673776 -0.86513382
2063247489.75 0.51671845 -0.86510229
2063251396 0.51663983 -0.865206
2063255302.25 0.5166285 -0.86520916
2063259208.5 0.51661044 -0.86525029
2063263114.75 0.51647294 -0.86527067
2063267021 0.51651055 -0.86525118
2063270927.25 0.51644194 -0.86526257
2063274833.5 0.51646632 -0.86533093
2063278739.75 0.51642549 -0.8653627
2063282646 0.51633692 -0.86544156
2063286552.25 0.51627797 -0.86548376
2063290458.5 0.51625311 -0.86548096
2063294364.75 0.51615173 -0.86545902
2063298271 0.51616776 -0.86547947
2063302177.25 0.51604563 -0.86544269
2063306083.5 0.51603603 -0.86560309
2063309989.75 0.516011 -0.86555541
2063313896 0.51589185 -0.86560255
2063317802.25 0.51588058 -0.86557066
2063321708.5 0.51586151 -0.86557889
2063325614.75 0.51580131 -0.86570448
2063329521 0.51578295 -0.86561543
2063333427.25 0.5157699 -0.86581039
2063337333.5 0.51578963 -0.86581761
2063341239.75 0.51556015 -0.86582255
2063345146 0.51559383 -0.86580485
2063349052.25 0.51560181 -0.86586905
2063352958.5 0.515495 -0.86582297
2063356864.75 0.51540464 -0.86586416
2063360771 0.51532704 -0.86591071
2063364677.25 0.51530415 -0.86592185
2063368583.5 0.51518816 -0.86595559
2063372489.75 0.51521742 -0.86601281
2063376396 0.51513398 -0.86599463
2063380302.25 0.51511174 -0.86600471
2063384208.5 0.51516986 -0.86609983
2063388114.75 0.51502359 -0.86613864
2063392021 0.51500154 -0.86609054
2063395927.25 0.51495916 -0.86625588
2063399833.5 0.51485705 -0.86631489
2063403739.75 0.51489323 -0.86625081
2063407646 0.51485276 -0.86633688
2063411552.25 0.51482254 -0.86636543
2063415458.5 0.51480389 -0.86638194
2063419364.75 0.51476598 -0.86634171
2063423271 0.51466703 -0.86640686
2063427177.25 0.51460594 -0.8664878
2063431083.5 0.51459181 -0.86646819
2063434989.75 0.51449132 -0.86653256
2063438896 0.51443774 -0.86653858
2063442802.25 0.51441872 -0.86654264
2063446708.5 0.51445204 -0.86652541
2063450614.75 0.51434582 -0.8665337
2063454521 0.51424241 -0.86668503
2063458427.25 0.51422709 -0.86660212
2063462333.5 0.51416558 -0.86668223
2063466239.75 0.51416558 -0.86665452
2063470146 0.51412964 -0.86676747
2063474052.25 0.51403463 -0.86670369
2063477958.5 0.51390702 -0.86668211
2063481864.75 0.51391846 -0.86685455
2063485771 0.51388723 -0.86690921
2063489677.25 0.51382852 -0.86679345
2063493583.5 0.51377022 -0.86681861
2063497489.75 0.51371354 -0.86691928
2063501396 0.51374966 -0.86691064
2063505302.25 0.51361531 -0.86696738
2063509208.5 0.51359415 -0.86696154
2063513114.75 0.51351953 -0.86701596
2063517021 0.51348191 -0.86711162
2063520927.25 0.51338845 -0.86713016
2063524833.5 0.51337457 -0.86705297
2063528739.75 0.51336181 -0.86709094
2063532646 0.51322758 -0.86709851
2063536552.25 0.51327348 -0.86710352
2063540458.5 0.51318359 -0.86715293
2063544364.75 0.51323652 -0.8672241
2063548271 0.51300746 -0.86720616
2063552177.25 0.51298708 -0.86732435
2063556083.5 0.51301622 -0.86732018
2063559989.75 0.51289564 -0.86731261
2063563896 0.51278907 -0.86740464
2063567802.25 0.51276761 -0.86742562
2063571708.5 0.51271605 -0.86747754
2063575614.75 0.51270908 -0.86745852
2063579521 0.51258045 -0.86742705
2063583427.25 0.51255876 -0.8675372
2063587333.5 0.51262134 -0.86759472
2063591239.75 0.51249456 -0.86753243
2063595146 0.51236039 -0.86754328
2063599052.25 0.51240247 -0.86757165
2063602958.5 0.51233798 -0.86767012
2063606864.75 0.51230228 -0.86767524
2063610771 0.51220351 -0.86775303
2063614677.25 0.51218659 -0.86779892
2063618583.5 0.51207721 -0.86771882
2063622489.75 0.51208997 -0.86774266
2063626396 0.5120393 -0.86782867
2063630302.25 0.51194203 -0.86792564
2063634208.5 0.5119316 -0.86800069
2063638114.75 0.51186299 -0.86791641
2063642021 0.51184624 -0.86797261
2063645927.25 0.51177424 -0.86795652
2063649833.5 0.51177311 -0.86800361
2063653739.75 0.51173872 -0.86812729
2063657646 0.51167268 -0.86805922
2063661552.25 0.51155263 -0.86816013
2063665458.5 0.51155174 -0.86815381
2063669364.75 0.51153529 -0.86815774
2063673271 0.51148355 -0.868213
2063677177.25 0.5114134 -0.86827004
2063681083.5 0.5114134 -0.86833251
2063684989.75 0.51132613 -0.86833185
2063688896 0.5112859 -0.86833596
2063692802.25 0.5112114 -0.86832941
2063696708.5 0.51114869 -0.86838132
2063700614.75 0.51110989 -0.86835986
2063704521 0.51110846 -0.86842823
2063708427.25 0.51110703 -0.868527
2063712333.5 0.51090443 -0.86843771
2063716239.75 0.51087904 -0.86852485
2063720146 0.51080763 -0.86855519
2063724052.25 0.51075798 -0.86858946
2063727958.5 0.51078612 -0.86863005
2063731864.75 0.51063973 -0.86862653
2063735771 0.51054746 -0.86861402
2063739677.25 0.5105561 -0.86868209
2063743583.5 0.51045191 -0.86870223
2063747489.75 0.51040184 -0.8687712
2063751396 0.51040554 -0.86887783
2063755302.25 0.51033556 -0.86879486
2063759208.5 0.51028991 -0.86891931
2063763114.75 0.51026285 -0.8688975
2063767021 0.51020259 -0.86899495
2063770927.25 0.5101642 -0.86904192
2063774833.5 0.51018131 -0.86899424
2063778739.75 0.51007968 -0.86898935
2063782646 0.51003194 -0.86902767
2063786552.25 0.50993717 -0.8690328
2063790458.5 0.50987083 -0.86910355
2063794364.75 0.50977957 -0.86907703
2063798271 0.50980914 -0.8691752
2063802177.25 0.50983399 -0.86912459
2063806083.5 0.50967228 -0.8691805
2063809989.75 0.50966579 -0.86917388
2063813896 0.50961626 -0.86923301
2063817802.25 0.50949001 -0.86926931
2063821708.5 0.50946748 -0.86928624
2063825614.75 0.50945705 -0.86930698
2063829521 0.50954986 -0.86932409
2063833427.25 0.50939792 -0.86943537
2063837333.5 0.50930476 -0.86948436
2063841239.75 0.50932443 -0.86944836
2063845146 0.50923383 -0.86953461
2063849052.25 0.509188 -0.8695097
2063852958.5 0.5091297 -0.86955094
2063856864.75 0.50913417 -0.86966348
2063860771 0.50911373 -0.8696264
2063864677.25 0.50900608 -0.86967671
2063868583.5 0.50893086 -0.86971939
2063872489.75 0.50892472 -0.86976838
2063876396 0.50885177 -0.86977232
2063880302.25 0.50876755 -0.86980253
2063884208.5 0.50878698 -0.86973923
2063888114.75 0.50872171 -0.86973804
2063892021 0.50864506 -0.86980951
2063895927.25 0.50855392 -0.86988008
2063899833.5 0.50849611 -0.86984891
2063903739.75 0.50840652 -0.86984342
2063907646 0.5084762 -0.86997473
2063911552.25 0.50842339 -0.86993521
2063915458.5 0.50827616 -0.86991829
2063919364.75 0.50827438 -0.86995411
2063923271 0.50821674 -0.87009078
2063927177.25 0.50820786 -0.87008917
2063931083.5 0.50820416 -0.87018287
2063934989.75 0.50812614 -0.87016994
2063938896 0.50806886 -0.87024599
2063942802.25 0.5080151 -0.87016559
