!Agilent Technologies,N5221A,MY51411109,A.09.90.13
!Agilent N5221A: A.09.90.13
!Date: Thursday, March 03, 2022 12:35:17
!Correction: S11(Full 2 Port(1,2)) 
!S21(Full 2 Port(1,2)) 
!S12(Full 2 Port(1,2)) 
!S22(Full 2 Port(1,2)) 
!S2P File: Measurements: S11, S21, S12, S22:
# Hz S  RI   R 50
8038368922 0.43995002 -0.81681478 -0.13131443 0.001549616 -0.1309381 0.0014373988 -0.14162205 -0.84718567
8038373922 0.44084662 -0.81576842 -0.1310433 0.001398052 -0.13121907 0.0016429324 -0.14150551 -0.84775686
8038378922 0.44144073 -0.8157469 -0.13096881 0.0012496939 -0.13087578 0.0011460895 -0.14228825 -0.84689116
8038383922 0.44069228 -0.81524926 -0.13090572 0.0014138088 -0.13087697 0.0014016237 -0.14216536 -0.84664392
8038388922 0.4412362 -0.81610626 -0.13084966 0.0014892363 -0.13095146 0.0012196745 -0.1419141 -0.84721065
8038393922 0.43991616 -0.8166284 -0.13114712 0.0015683809 -0.13104102 0.0015062346 -0.14205627 -0.84703326
8038398922 0.4405818 -0.81648159 -0.13098885 0.0012474139 -0.1312229 0.0014283365 -0.14217837 -0.84700578
8038403922 0.44033349 -0.81610763 -0.13114062 0.0016344395 -0.13114537 0.0016394492 -0.14203593 -0.84697729
8038408922 0.44067439 -0.81579208 -0.13118654 0.0014854176 -0.13139746 0.0017197191 -0.14252731 -0.84627974
8038413922 0.44093436 -0.81497973 -0.13108504 0.0015475703 -0.13141465 0.0017535002 -0.14237721 -0.84710813
8038418922 0.44095483 -0.81468064 -0.1309561 0.0014418593 -0.13150311 0.0012982633 -0.14170137 -0.84671921
8038423922 0.44200259 -0.81584698 -0.13111712 0.0013080495 -0.13132356 0.0015631014 -0.14174825 -0.84643286
8038428922 0.44091898 -0.81662381 -0.13128394 0.0013053614 -0.13115729 0.0017587261 -0.14220014 -0.84658307
8038433922 0.44061476 -0.81686527 -0.13120987 0.0015864809 -0.13137011 0.0017290388 -0.14217709 -0.84703815
8038438922 0.44070286 -0.81665242 -0.13126683 0.0014756133 -0.13148075 0.0017675429 -0.14212562 -0.84685242
8038443922 0.44050455 -0.81703568 -0.13148481 0.0013305251 -0.13139653 0.0016791576 -0.14220753 -0.84675109
8038448922 0.44057521 -0.81697339 -0.13158239 0.0015043318 -0.13123085 0.0013417483 -0.14262736 -0.84729081
8038453922 0.44041094 -0.81630975 -0.13150604 0.0015317483 -0.13112833 0.0018325379 -0.14246632 -0.84674984
8038458922 0.44049951 -0.81526244 -0.13135403 0.0014682447 -0.13134933 0.0014441386 -0.14187941 -0.84715939
8038463922 0.4402099 -0.81659037 -0.1313155 0.0017053554 -0.13127518 0.0015076095 -0.14194304 -0.847085
8038468922 0.44004822 -0.81622779 -0.13124256 0.0017319393 -0.13160145 0.001549194 -0.14232945 -0.84703416
8038473922 0.44003728 -0.81664127 -0.13141486 0.0018257463 -0.13113168 0.0016070142 -0.14189677 -0.84660184
8038478922 0.44070661 -0.81661034 -0.13113485 0.0015626259 -0.13121133 0.0014618005 -0.14240186 -0.84611934
8038483922 0.44102189 -0.81581968 -0.13110037 0.0015029153 -0.13115789 0.0012496577 -0.14242288 -0.84607053
8038488922 0.44087762 -0.81571031 -0.13124466 0.0013507135 -0.1311579 0.0014316223 -0.14177819 -0.8465175
8038493922 0.44000939 -0.81571358 -0.13128215 0.0016297625 -0.13143681 0.001435867 -0.14293313 -0.84604132
8038498922 0.44024834 -0.81505281 -0.13099037 0.0017439522 -0.13158447 0.0015406715 -0.14253488 -0.84665734
8038503922 0.43954518 -0.81633258 -0.13141319 0.0016355527 -0.13141428 0.0015365197 -0.14196596 -0.84689653
8038508922 0.43992713 -0.81659979 -0.13156784 0.0015914533 -0.13134612 0.0015188879 -0.14227833 -0.84663314
8038513922 0.44032025 -0.81620616 -0.1314728 0.0014636039 -0.13138324 0.0014720717 -0.14199737 -0.84666026
8038518922 0.43998185 -0.81665576 -0.13176568 0.0014761246 -0.13145112 0.0017888165 -0.14315496 -0.84626848
8038523922 0.4404313 -0.8171463 -0.13183042 0.0017150308 -0.13172233 0.0014000057 -0.14206626 -0.84671015
8038528922 0.44095281 -0.8170349 -0.13173024 0.0016245404 -0.13141619 0.0017626786 -0.14275211 -0.84622359
8038533922 0.43972194 -0.81624401 -0.13138597 0.0015509924 -0.13155095 0.0016988819 -0.14317341 -0.84681249
8038538922 0.43958205 -0.81620735 -0.13154684 0.0018275472 -0.13135615 0.0019838684 -0.1432077 -0.84644395
8038543922 0.43957409 -0.81599098 -0.13149682 0.0017177023 -0.1315752 0.00165295 -0.14262125 -0.84600896
8038548922 0.44046235 -0.81654286 -0.13148724 0.0016044251 -0.13147663 0.0015312778 -0.14291175 -0.84552181
8038553922 0.44005504 -0.81652963 -0.13157105 0.0017975962 -0.13182065 0.0017234465 -0.14311561 -0.8461954
8038558922 0.44029674 -0.81613481 -0.13137303 0.0016884098 -0.13177764 0.0018419296 -0.14302963 -0.84609956
8038563922 0.43949458 -0.81615925 -0.1314389 0.0016489672 -0.13154539 0.0020191451 -0.14282355 -0.8461197
8038568922 0.4404195 -0.81634504 -0.13178642 0.0017100516 -0.13172942 0.0018580946 -0.14329602 -0.84653485
8038573922 0.44047454 -0.81646103 -0.13178021 0.0017123241 -0.13181175 0.0015312224 -0.1436006 -0.84681213
8038578922 0.44094041 -0.81614441 -0.13163997 0.0016633729 -0.13211185 0.0015056193 -0.14345041 -0.84709388
8038583922 0.43978801 -0.81660914 -0.13172509 0.001805831 -0.13186462 0.0015292455 -0.14445113 -0.84662533
8038588922 0.44015449 -0.81582165 -0.1316838 0.0017210389 -0.13181765 0.001929715 -0.14391321 -0.84667742
8038593922 0.44026729 -0.81647414 -0.13154082 0.0019856545 -0.13175493 0.0018891388 -0.14393777 -0.84708321
8038598922 0.44003528 -0.81722003 -0.13179787 0.001762305 -0.13170849 0.0019758362 -0.14327662 -0.84761953
8038603922 0.43941262 -0.81642365 -0.13148385 0.0018969286 -0.13165572 0.0018220727 -0.14335005 -0.84634852
8038608922 0.43975738 -0.81619972 -0.13171189 0.0016053108 -0.13190226 0.00168498 -0.142603 -0.84674531
8038613922 0.43924573 -0.8165974 -0.13192186 0.0017529355 -0.13191937 0.0020541002 -0.14343855 -0.8462615
8038618922 0.44034997 -0.81593949 -0.13197438 0.0016422145 -0.13177483 0.0016374011 -0.14303178 -0.84708023
8038623922 0.44033384 -0.81578183 -0.13188764 0.0015490659 -0.13178766 0.0017374352 -0.14321619 -0.84663147
8038628922 0.43966493 -0.81567055 -0.13174526 0.0016974102 -0.1316728 0.001674858 -0.14297763 -0.84564275
8038633922 0.43970019 -0.81619006 -0.13189936 0.0019169264 -0.13181558 0.0016456984 -0.14361164 -0.84559178
8038638922 0.44010696 -0.8166979 -0.13198119 0.0018565368 -0.13181505 0.0018232369 -0.14357685 -0.84522146
8038643922 0.4397288 -0.81718916 -0.13201365 0.0019919139 -0.13179575 0.0016894608 -0.14367393 -0.84564978
8038648922 0.44055417 -0.81637859 -0.13191564 0.0016469827 -0.13194743 0.0017432609 -0.14358279 -0.84645694
8038653922 0.44039881 -0.81597388 -0.13215636 0.0016389521 -0.1320664 0.0017044074 -0.14319548 -0.84602219
8038658922 0.43941349 -0.8164171 -0.13166094 0.0019226599 -0.1319162 0.0016113062 -0.1432765 -0.84579343
8038663922 0.43942773 -0.81643444 -0.13173053 0.0016650982 -0.13195263 0.0015220185 -0.14337537 -0.84610891
8038668922 0.43969819 -0.81638765 -0.1318536 0.0019870573 -0.13176933 0.0016963657 -0.14368199 -0.84571999
8038673922 0.43908766 -0.81633347 -0.13213655 0.0019428795 -0.13195127 0.0016158011 -0.14409003 -0.84623611
8038678922 0.43907037 -0.81554121 -0.13176566 0.0016623918 -0.13179387 0.0018320405 -0.14412099 -0.84648252
8038683922 0.43942228 -0.81585222 -0.13177852 0.0019449432 -0.1319409 0.0018637883 -0.14475341 -0.84638137
8038688922 0.4401314 -0.8160826 -0.13171318 0.0016082537 -0.13182124 0.0019712285 -0.14403747 -0.84646326
8038693922 0.43978116 -0.81626797 -0.1317852 0.00172693 -0.13220161 0.001738686 -0.14400253 -0.84641361
8038698922 0.43987033 -0.81584412 -0.13193969 0.0015017017 -0.13211553 0.0019453899 -0.14410859 -0.8457002
8038703922 0.44002649 -0.81559271 -0.13197303 0.0014091559 -0.13223809 0.001604636 -0.14348428 -0.84571719
8038708922 0.44049221 -0.81720662 -0.13215694 0.0015938904 -0.13223824 0.001482479 -0.14350748 -0.84620899
8038713922 0.44030088 -0.81700456 -0.13209167 0.0016387488 -0.13216481 0.0016675807 -0.14353709 -0.84647572
8038718922 0.44037706 -0.81711936 -0.13210276 0.0016399126 -0.13227159 0.0017224116 -0.14328583 -0.84685969
8038723922 0.43978241 -0.81669825 -0.13196912 0.001486143 -0.1321145 0.0018852961 -0.14403109 -0.84585142
8038728922 0.43971759 -0.81626695 -0.13177428 0.001590755 -0.13212702 0.0019064347 -0.14387447 -0.8455466
8038733922 0.43974921 -0.81689012 -0.13227162 0.0018189864 -0.13195831 0.0017982335 -0.14338611 -0.84546775
8038738922 0.43991581 -0.81633466 -0.13219933 0.0016422989 -0.13229246 0.0017416296 -0.14314239 -0.84562254
8038743922 0.43990496 -0.81679869 -0.13206379 0.0015201139 -0.13216753 0.0019029053 -0.14382632 -0.84649098
8038748922 0.44090992 -0.81643283 -0.13205086 0.0012908104 -0.13242672 0.0018217517 -0.14370883 -0.84567648
8038753922 0.43972373 -0.81644386 -0.13220777 0.001849582 -0.13202621 0.0016432262 -0.14395581 -0.84551477
8038758922 0.43990946 -0.81618899 -0.13228467 0.0015191098 -0.13216524 0.0015906267 -0.14409788 -0.84614694
8038763922 0.43989274 -0.81575835 -0.13234133 0.0017358958 -0.13225827 0.0017493193 -0.14417502 -0.8457253
8038768922 0.43998426 -0.81600767 -0.13231148 0.0016373337 -0.13203667 0.0017623535 -0.14419667 -0.84559685
8038773922 0.44016668 -0.81614751 -0.13216957 0.0016679135 -0.13236926 0.00184015 -0.14437473 -0.84605348
8038778922 0.43974918 -0.81624252 -0.1319571 0.001470973 -0.13244358 0.0018688026 -0.14397459 -0.84616464
8038783922 0.44000092 -0.81713128 -0.13227706 0.001754256 -0.1324276 0.0014286587 -0.14452974 -0.84574842
8038788922 0.43962187 -0.81697387 -0.13238086 0.0017197988 -0.13270274 0.0015352516 -0.14439763 -0.84603798
8038793922 0.43961668 -0.81669748 -0.13239363 0.0020196736 -0.13227046 0.0015815111 -0.14448026 -0.84583515
8038798922 0.43931925 -0.81610286 -0.13208635 0.0021255286 -0.13255423 0.0021852539 -0.14460678 -0.84591877
8038803922 0.43949917 -0.8169992 -0.13240086 0.0022607143 -0.13232447 0.0019070478 -0.14475965 -0.84572148
8038808922 0.43960786 -0.81694555 -0.13238987 0.0019038876 -0.13225824 0.0017288693 -0.14470235 -0.84648025
8038813922 0.44004786 -0.8170414 -0.13246837 0.0018739525 -0.13229346 0.0020408568 -0.14490172 -0.8459745
8038818922 0.43986267 -0.81639481 -0.13247485 0.0018540752 -0.1323365 0.0020914518 -0.14477772 -0.84573603
8038823922 0.43840683 -0.81655288 -0.13261095 0.0017727177 -0.13267058 0.001973741 -0.1448096 -0.84644467
8038828922 0.43920496 -0.8166827 -0.13256675 0.0018074644 -0.13252218 0.0020414209 -0.14516363 -0.84608454
8038833922 0.43882993 -0.81632274 -0.13256285 0.0017042689 -0.13266288 0.001740959 -0.14517921 -0.84595764
8038838922 0.43969184 -0.81650358 -0.13276517 0.0020866273 -0.13241327 0.0018432406 -0.14474113 -0.84596211
8038843922 0.44002888 -0.81563407 -0.13259606 0.0018605231 -0.13277148 0.0021275259 -0.14492983 -0.84637618
8038848922 0.43915203 -0.81650686 -0.13268137 0.0019681372 -0.13243236 0.0017283692 -0.14490516 -0.8452037
8038853922 0.43984777 -0.81558716 -0.13281749 0.0018348399 -0.13244882 0.0019198367 -0.14456362 -0.84605223
8038858922 0.43963027 -0.81637371 -0.13270487 0.0019554331 -0.13255638 0.0019797049 -0.14452146 -0.84567291
8038863922 0.44005403 -0.81656861 -0.13257878 0.0017950797 -0.13272451 0.0018966395 -0.14453124 -0.84598684
8038868922 0.43957463 -0.81644422 -0.13205984 0.0020345808 -0.1328921 0.0018658479 -0.14537017 -0.84573948
8038873922 0.44047549 -0.81670398 -0.13264161 0.0017921828 -0.13257119 0.0018007027 -0.14534466 -0.84530073
8038878922 0.44001997 -0.81689256 -0.13267583 0.0016300712 -0.132599 0.0021405912 -0.14500563 -0.84508878
8038883922 0.44057247 -0.81599855 -0.13273899 0.0017091531 -0.13281099 0.0019300409 -0.14440913 -0.8457886
8038888922 0.43938652 -0.81662899 -0.13270204 0.001781276 -0.13270327 0.0021360535 -0.14436293 -0.84559017
8038893922 0.43998954 -0.8159678 -0.13243355 0.0018479772 -0.13273308 0.0019599255 -0.14498644 -0.84609628
8038898922 0.43864438 -0.81673729 -0.13260661 0.0020071242 -0.13289601 0.002200943 -0.14551432 -0.84566766
8038903922 0.44046703 -0.81629127 -0.13271207 0.0017767514 -0.13283661 0.0017258305 -0.14478165 -0.84553558
8038908922 0.43992478 -0.8169207 -0.13276339 0.0019216621 -0.13265289 0.0020787923 -0.14561045 -0.84510243
8038913922 0.44050059 -0.81621295 -0.13294494 0.0016922932 -0.13264537 0.0019727719 -0.14536671 -0.84509212
8038918922 0.43948865 -0.8161999 -0.13267578 0.0018224127 -0.13306013 0.0019819494 -0.14519134 -0.845137
8038923922 0.4399426 -0.81594586 -0.13286322 0.0019504866 -0.1329135 0.0019267472 -0.14556856 -0.84549528
8038928922 0.43958938 -0.81636518 -0.13268717 0.0019268811 -0.13275023 0.0022827322 -0.14535774 -0.84520978
8038933922 0.43841472 -0.81661683 -0.13257569 0.0019644855 -0.13267863 0.0022368503 -0.14553788 -0.84436071
8038938922 0.43930081 -0.8158161 -0.13248163 0.0019947591 -0.13271229 0.0019141875 -0.14533351 -0.84418386
8038943922 0.43986794 -0.81628907 -0.13254488 0.0018505618 -0.13282795 0.0022269653 -0.1454595 -0.84474373
8038948922 0.43920484 -0.81692749 -0.13271338 0.0021754995 -0.13292585 0.0020836145 -0.14502175 -0.84547204
8038953922 0.44059655 -0.81550872 -0.13272449 0.0018814327 -0.13285783 0.0019551227 -0.14500643 -0.84600651
8038958922 0.4399873 -0.81586277 -0.13298477 0.0020111026 -0.13305423 0.0019860961 -0.14619294 -0.84595358
8038963922 0.43965578 -0.81594622 -0.13260999 0.0016488201 -0.13275596 0.0023089983 -0.14613874 -0.84582156
8038968922 0.43896854 -0.81667149 -0.13307674 0.0019201289 -0.13309778 0.001897859 -0.14550512 -0.84536111
8038973922 0.43864852 -0.81694865 -0.13280632 0.0019271814 -0.13263361 0.0015062263 -0.14572008 -0.84538013
8038978922 0.43966478 -0.81696004 -0.13301191 0.0019952597 -0.13280185 0.0017761404 -0.145421 -0.84530365
8038983922 0.43945017 -0.81663281 -0.13302362 0.0019844102 -0.13276391 0.0021711502 -0.14551076 -0.84499145
8038988922 0.43924105 -0.81632388 -0.1328349 0.0020602555 -0.13281949 0.0019662844 -0.14589532 -0.84556377
8038993922 0.43843865 -0.81663227 -0.13307045 0.0020817469 -0.13303559 0.0017560646 -0.1458945 -0.84530568
8038998922 0.43878463 -0.81645948 -0.13311657 0.001844009 -0.13276418 0.0020319126 -0.14568658 -0.84539866
8039003922 0.43974584 -0.81655937 -0.13293134 0.0021029657 -0.13306905 0.0019413432 -0.14573143 -0.84600884
8039008922 0.43904829 -0.81632984 -0.13284908 0.0020995708 -0.13289358 0.0016311603 -0.1461865 -0.84502906
8039013922 0.43980664 -0.81614792 -0.13294871 0.0018475668 -0.1332881 0.0019399876 -0.1462622 -0.84507197
8039018922 0.43925923 -0.81678098 -0.1330409 0.0019766069 -0.13309471 0.001882843 -0.14565124 -0.84523952
8039023922 0.43988237 -0.81682032 -0.13298401 0.0020811181 -0.13324605 0.0018518781 -0.14607246 -0.84571475
8039028922 0.43926716 -0.817285 -0.13313666 0.0022512374 -0.13333233 0.0022502223 -0.14590311 -0.84550345
8039033922 0.43984351 -0.816778 -0.13305895 0.0019142898 -0.13322134 0.0022769673 -0.14561284 -0.84532815
8039038922 0.43861204 -0.81696016 -0.13306458 0.0022518157 -0.13314928 0.0020296678 -0.145649 -0.84524214
8039043922 0.43898833 -0.81649238 -0.133223 0.0020539844 -0.13306148 0.0020304786 -0.14530189 -0.84554619
8039048922 0.43895197 -0.81668961 -0.13315642 0.0022192046 -0.13304915 0.0021075387 -0.14660585 -0.84548944
8039053922 0.44006872 -0.81675297 -0.13327052 0.0019535322 -0.13317432 0.0020414907 -0.14669536 -0.84589624
8039058922 0.43971616 -0.81697637 -0.13338634 0.0021550092 -0.13318451 0.0019034332 -0.1467637 -0.84533721
8039063922 0.44012606 -0.81696796 -0.13298565 0.0020202445 -0.13330396 0.0020639682 -0.14651336 -0.84542829
8039068922 0.43890241 -0.81676143 -0.13289344 0.0019648355 -0.13311864 0.0021050561 -0.14592136 -0.84533942
8039073922 0.43871257 -0.81739205 -0.13306795 0.0020914394 -0.13295372 0.0020721462 -0.14573696 -0.84505177
8039078922 0.43889719 -0.81752551 -0.13317959 0.0020579679 -0.13299245 0.002232264 -0.14603157 -0.84508175
8039083922 0.43916401 -0.81684339 -0.13324854 0.0020516042 -0.13282421 0.0020534131 -0.14646728 -0.84501886
8039088922 0.43906105 -0.81644803 -0.13318044 0.0018837766 -0.13312824 0.0019289894 -0.14690183 -0.84532756
8039093922 0.43847623 -0.81640607 -0.13311715 0.0019055717 -0.13301083 0.0018998258 -0.1466504 -0.84545666
8039098922 0.43865332 -0.81693369 -0.13311654 0.0022836912 -0.13327241 0.0021825698 -0.14640102 -0.84532857
8039103922 0.43910903 -0.81727737 -0.13329154 0.0023153143 -0.13335493 0.0022881676 -0.14658524 -0.84533828
8039108922 0.43870822 -0.81723833 -0.13337058 0.00215116 -0.13324738 0.0022242472 -0.14740512 -0.84495002
8039113922 0.43882933 -0.81659883 -0.13329391 0.0021617897 -0.13298866 0.0022845359 -0.14707622 -0.8452301
8039118922 0.43823186 -0.81578612 -0.13339673 0.0022104785 -0.13310489 0.0020684302 -0.14625759 -0.84446877
8039123922 0.43895712 -0.81639975 -0.13331646 0.0022533389 -0.13333051 0.0022480078 -0.14611736 -0.84488714
8039128922 0.43824902 -0.81680673 -0.13342252 0.0025214038 -0.13325906 0.0021708054 -0.14623293 -0.84439391
8039133922 0.43826896 -0.81684816 -0.13353215 0.0023757881 -0.13346894 0.0022540116 -0.14728124 -0.84522974
8039138922 0.43852201 -0.81656414 -0.13347638 0.0022130921 -0.13321459 0.002193277 -0.14708185 -0.84599543
8039143922 0.438182 -0.81660378 -0.13338226 0.0022973351 -0.13365729 0.0022618335 -0.1467604 -0.84510243
8039148922 0.43843484 -0.81688029 -0.1336761 0.0023761168 -0.13347599 0.0021243549 -0.14630052 -0.84508318
8039153922 0.43912205 -0.81643379 -0.13347089 0.0021347136 -0.13361274 0.0021173113 -0.14679652 -0.84484935
8039158922 0.43851453 -0.81629908 -0.13332738 0.0020908106 -0.13352226 0.0024684607 -0.14707603 -0.84489006
8039163922 0.43858102 -0.81675267 -0.13336164 0.0021985683 -0.13347062 0.0020900855 -0.14680657 -0.84482205
8039168922 0.43860018 -0.81642586 -0.13336562 0.0022632061 -0.13331184 0.002193782 -0.14676958 -0.84435189
8039173922 0.4394415 -0.81634992 -0.13363747 0.002101843 -0.13345397 0.0020188061 -0.14748728 -0.84460217
8039178922 0.43867707 -0.81641656 -0.1337747 0.0022096981 -0.13368914 0.0020645922 -0.14780794 -0.8457489
8039183922 0.43937451 -0.81649321 -0.134027 0.0022913925 -0.13352014 0.0020811467 -0.14673074 -0.84558493
8039188922 0.43935388 -0.81663585 -0.13384588 0.0018868331 -0.13364641 0.0017932307 -0.1461553 -0.8457368
8039193922 0.44031891 -0.81632268 -0.13354957 0.001999506 -0.13367961 0.0020072204 -0.14628571 -0.84538931
8039198922 0.43865401 -0.8168155 -0.13338789 0.002068246 -0.13383345 0.0021647222 -0.14701821 -0.84457296
8039203922 0.43995786 -0.8163873 -0.13342777 0.0019887311 -0.13369854 0.0020945251 -0.14707597 -0.84490377
8039208922 0.43880633 -0.81676674 -0.13346623 0.0020629168 -0.13362986 0.0021077122 -0.14717649 -0.84444469
8039213922 0.43921056 -0.81664222 -0.13340952 0.0019666692 -0.13366778 0.0022187254 -0.1471767 -0.84510911
8039218922 0.43930209 -0.81708419 -0.13368203 0.0021236215 -0.13339449 0.0021287054 -0.14771309 -0.84420395
8039223922 0.4390128 -0.81743026 -0.13367634 0.0024435567 -0.13359673 0.0023801518 -0.14791176 -0.84447062
8039228922 0.43921763 -0.81650138 -0.13356458 0.0024044921 -0.13358657 0.0021238318 -0.14759317 -0.8440032
8039233922 0.43876821 -0.81659043 -0.13354136 0.002305954 -0.13351455 0.0024070118 -0.14764769 -0.84430522
8039238922 0.4393172 -0.81558931 -0.13340825 0.0022396306 -0.13372988 0.0020197881 -0.14712071 -0.84470981
8039243922 0.43905514 -0.81665438 -0.13349943 0.0021411006 -0.13380884 0.0022000058 -0.14715011 -0.84490365
8039248922 0.43898341 -0.817294 -0.13362087 0.0021622006 -0.13385546 0.0020340064 -0.14794488 -0.84397966
8039253922 0.43954897 -0.81637383 -0.13383831 0.0021366926 -0.13405727 0.0022953532 -0.147498 -0.84468287
8039258922 0.43807596 -0.81730962 -0.13392974 0.0023864636 -0.1335137 0.0020344872 -0.14726464 -0.84473914
8039263922 0.43906191 -0.81675446 -0.13401338 0.0022259972 -0.13368261 0.0019993847 -0.14737262 -0.84525013
8039268922 0.43860507 -0.81624484 -0.13376236 0.0023170249 -0.1338542 0.0021946577 -0.14739077 -0.84453803
8039273922 0.43846217 -0.81588417 -0.13354553 0.0023264142 -0.13387427 0.0023837402 -0.14716567 -0.84443808
