!Agilent Technologies,N5221A,MY51411109,A.09.90.13
!Agilent N5221A: A.09.90.13
!Date: Friday, February 18, 2022 15:59:48
!Correction: S11(Full 2 Port(1,2)) 
!S21(Full 2 Port(1,2)) 
!S12(Full 2 Port(1,2)) 
!S22(Full 2 Port(1,2)) 
!S2P File: Measurements: S11, S21, S12, S22:
# Hz S  RI   R 50
3688682135 0.26302055 0.73960012 -0.06350556 0.051024921 -0.063552663 0.050820798 0.60463357 0.63382101
3688682681.875 0.26258779 0.73942304 -0.063433088 0.050910518 -0.063503452 0.050821062 0.60491312 0.63401699
3688683228.75 0.2624532 0.73958206 -0.063452236 0.050959829 -0.063458323 0.050985422 0.60540885 0.6340223
3688683775.625 0.2624366 0.73954803 -0.06348636 0.051039085 -0.063401937 0.050962012 0.6054123 0.63367462
3688684322.5 0.26268432 0.73934388 -0.063476212 0.05112147 -0.063514933 0.050972462 0.60526055 0.63378888
3688684869.375 0.26256496 0.73945707 -0.063536361 0.050975624 -0.063496597 0.050917365 0.605165 0.63401645
3688685416.25 0.26249373 0.7390725 -0.063621767 0.0511395 -0.063651815 0.050846022 0.6052317 0.63415247
3688685963.125 0.26264954 0.73969799 -0.063527063 0.05111837 -0.063719071 0.050919119 0.60496879 0.63396001
3688686510 0.26268604 0.73969352 -0.063548274 0.051060874 -0.063606344 0.050940983 0.60522807 0.63378996
3688687056.875 0.26232952 0.73934186 -0.063644432 0.051003139 -0.0635942 0.050878253 0.6051448 0.63362443
3688687603.75 0.26255667 0.73942804 -0.063554212 0.050884888 -0.063653253 0.051129267 0.60502589 0.63361639
3688688150.625 0.26246494 0.73954904 -0.063751154 0.051024184 -0.063637525 0.050880287 0.60508353 0.63366073
3688688697.5 0.26276159 0.73944801 -0.063688435 0.051178668 -0.063630559 0.051046927 0.60525978 0.63377899
3688689244.375 0.26247784 0.73899764 -0.063655764 0.051154941 -0.06363938 0.051008098 0.60487944 0.63377345
3688689791.25 0.2622799 0.73900908 -0.06371823 0.051022209 -0.063620202 0.05122488 0.6054039 0.63412082
3688690338.125 0.26250157 0.73941445 -0.063759029 0.051180094 -0.063541919 0.051054556 0.60510099 0.63452113
3688690885 0.26253656 0.73949999 -0.063738033 0.051095285 -0.063534498 0.0509982 0.60531116 0.63382822
3688691431.875 0.26277468 0.7394523 -0.063754976 0.051186502 -0.06361416 0.051186748 0.60555375 0.63386166
3688691978.75 0.26275989 0.73899752 -0.063544713 0.051152065 -0.063746244 0.050931856 0.60493964 0.63372982
3688692525.625 0.26260459 0.73909974 -0.063698299 0.051175293 -0.063648805 0.051051985 0.60529023 0.63406074
3688693072.5 0.26283681 0.73916686 -0.063659385 0.051285051 -0.06359601 0.050923135 0.60518187 0.6341005
3688693619.375 0.26246703 0.73909473 -0.063647196 0.051181905 -0.063573584 0.051091425 0.60508198 0.63342196
3688694166.25 0.26285776 0.73893052 -0.063658215 0.051229652 -0.063640147 0.051161297 0.60556531 0.63355571
3688694713.125 0.26231802 0.73926771 -0.06368006 0.051272988 -0.063784055 0.051080022 0.60557163 0.63322544
3688695260 0.26265389 0.73901522 -0.063813463 0.05126911 -0.063616872 0.050933536 0.60532719 0.63366973
3688695806.875 0.26254877 0.73931074 -0.063771069 0.051224992 -0.06367562 0.051141407 0.60526329 0.63387418
3688696353.75 0.26250657 0.73907495 -0.063796803 0.051116407 -0.063751899 0.051343072 0.60536027 0.63404053
3688696900.625 0.26240429 0.7395618 -0.063731641 0.05125929 -0.063826576 0.05112407 0.60510266 0.63373709
3688697447.5 0.26225588 0.73941714 -0.063719504 0.051276278 -0.063571118 0.051116232 0.60486275 0.63307405
3688697994.375 0.26266432 0.73933345 -0.063759364 0.051226284 -0.063849427 0.051130883 0.60508543 0.63336104
3688698541.25 0.26258215 0.73922837 -0.063721329 0.051168069 -0.06386859 0.050904471 0.60506564 0.63391668
3688699088.125 0.26235092 0.73914635 -0.063648395 0.051309053 -0.063863881 0.051186938 0.60519016 0.63407457
3688699635 0.262613 0.73911852 -0.063708447 0.051138371 -0.06358961 0.05122124 0.60527581 0.63335025
3688700181.875 0.26262417 0.73942876 -0.063754246 0.05138189 -0.063800752 0.051246416 0.60555029 0.63393998
3688700728.75 0.26284212 0.73897851 -0.063759603 0.051298004 -0.063697442 0.051302932 0.60571164 0.63377792
3688701275.625 0.2627596 0.73879969 -0.063578717 0.051190261 -0.063691251 0.051285576 0.60584688 0.63396591
3688701822.5 0.26259416 0.7389847 -0.063694291 0.051313505 -0.063720755 0.050974853 0.60522538 0.63361871
3688702369.375 0.26278529 0.7392689 -0.063900739 0.051225834 -0.06359195 0.051042378 0.60514754 0.63356078
3688702916.25 0.26238132 0.73910099 -0.063712381 0.051251926 -0.063890696 0.051146213 0.60548919 0.63366473
3688703463.125 0.26229861 0.73876363 -0.063919641 0.051270608 -0.063915834 0.051263917 0.60581678 0.63390595
3688704010 0.26230076 0.73871171 -0.06387081 0.051242918 -0.063868187 0.051430311 0.60496217 0.63310319
3688704556.875 0.26257214 0.73906678 -0.063931622 0.051400952 -0.063894756 0.051297955 0.60502464 0.63376862
3688705103.75 0.26275671 0.73896009 -0.063877717 0.051293679 -0.06380634 0.051385585 0.60523844 0.63322425
3688705650.625 0.26257148 0.73846191 -0.063847236 0.051381502 -0.063827746 0.051330738 0.60519075 0.63324815
3688706197.5 0.26249743 0.73900795 -0.063881226 0.05141319 -0.063974656 0.051329162 0.60532188 0.6334244
3688706744.375 0.26244354 0.73895597 -0.063861191 0.051335607 -0.063794658 0.051398721 0.60462266 0.63331628
3688707291.25 0.26259077 0.73897666 -0.063895293 0.051222146 -0.063809596 0.05132623 0.605084 0.63330615
3688707838.125 0.26222232 0.73926055 -0.06385237 0.051169705 -0.064011492 0.051307835 0.60500169 0.63335729
3688708385 0.26251492 0.73911482 -0.064004458 0.05143306 -0.063961744 0.051200707 0.60537297 0.63342518
3688708931.875 0.26221341 0.7391355 -0.063934051 0.051451202 -0.064005449 0.051399283 0.60560054 0.63383389
3688709478.75 0.26277956 0.73915476 -0.063760601 0.051515345 -0.063871801 0.051429439 0.60541844 0.6335094
3688710025.625 0.26292536 0.73880577 -0.063835435 0.05147339 -0.063867763 0.051343933 0.60542089 0.63367164
3688710572.5 0.26259339 0.73844051 -0.063997589 0.051415082 -0.064081281 0.051323444 0.60510576 0.6333819
3688711119.375 0.26266065 0.73927963 -0.064017549 0.051425301 -0.063904315 0.051524483 0.60549444 0.63361019
3688711666.25 0.2626422 0.73902714 -0.063914388 0.05151467 -0.06401635 0.051415704 0.60554421 0.63305211
3688712213.125 0.26268288 0.73887146 -0.063841179 0.051478624 -0.063915268 0.05138845 0.60509557 0.63337845
3688712760 0.26299286 0.73916972 -0.063919581 0.051519983 -0.064007297 0.051530384 0.60481495 0.6333459
3688713306.875 0.26336858 0.73874593 -0.063874289 0.051680975 -0.064004973 0.051512811 0.60475773 0.63266391
3688713853.75 0.26279569 0.73832762 -0.063882515 0.051628914 -0.064040683 0.051459488 0.60493863 0.63315749
3688714400.625 0.26301426 0.73892653 -0.064029105 0.051661167 -0.063937888 0.051453914 0.60521054 0.6332525
3688714947.5 0.26305476 0.73925012 -0.064012915 0.05155978 -0.063963719 0.051392771 0.60517734 0.63286972
3688715494.375 0.26279983 0.7393437 -0.064018436 0.051545978 -0.06405481 0.051588319 0.60513914 0.63334483
3688716041.25 0.26309627 0.73924881 -0.06400615 0.051657315 -0.064025275 0.05161421 0.6051048 0.63334072
3688716588.125 0.26282296 0.73913348 -0.063978679 0.051642552 -0.063815266 0.051532939 0.60512495 0.6332823
3688717135 0.26292545 0.73884213 -0.063844427 0.051556531 -0.064032108 0.051567178 0.60480827 0.63304949
3688717681.875 0.26325974 0.73907417 -0.063901991 0.05154556 -0.064103261 0.051505227 0.60506463 0.63272166
3688718228.75 0.2628448 0.73885858 -0.063977107 0.051527429 -0.063920051 0.051568501 0.60528958 0.63315088
3688718775.625 0.26333362 0.73896867 -0.063871548 0.051597074 -0.063972145 0.051478647 0.60538107 0.63310772
3688719322.5 0.26311156 0.73928887 -0.064023361 0.051658791 -0.063894056 0.051472966 0.60501593 0.63317883
3688719869.375 0.2631526 0.7390604 -0.064112298 0.051717013 -0.064032234 0.051575918 0.60538644 0.63299721
3688720416.25 0.26313919 0.73896116 -0.064040944 0.051611021 -0.064166844 0.051565688 0.60504711 0.63291639
3688720963.125 0.26294816 0.73891521 -0.064100467 0.051601142 -0.06414593 0.051380496 0.60487419 0.63283247
3688721510 0.26315987 0.73898989 -0.064076394 0.051558815 -0.063975781 0.05155598 0.60513234 0.63308507
3688722056.875 0.26269943 0.73861998 -0.063962042 0.05152142 -0.064076915 0.051606458 0.6054467 0.63311237
3688722603.75 0.26291803 0.73893481 -0.064142756 0.0515869 -0.063957505 0.051700145 0.6058619 0.63303375
3688723150.625 0.26303637 0.73861444 -0.063939221 0.05175883 -0.064091332 0.051653631 0.60506439 0.63316774
3688723697.5 0.26356867 0.73869485 -0.064109087 0.051626861 -0.064066447 0.051751569 0.60558736 0.63291675
3688724244.375 0.26317692 0.73860079 -0.064078577 0.051723488 -0.064207427 0.0517563 0.60525197 0.63297474
3688724791.25 0.26304787 0.73908257 -0.064043559 0.051735528 -0.064183764 0.051724713 0.60541838 0.63290846
3688725338.125 0.26329014 0.73875737 -0.064083278 0.051845241 -0.064210862 0.051662304 0.60496193 0.63291204
3688725885 0.26336089 0.73870713 -0.064164668 0.051926192 -0.064164996 0.051782936 0.60499495 0.63293278
3688726431.875 0.26350844 0.73859483 -0.064062774 0.051942371 -0.064124703 0.051779017 0.60494041 0.63323742
3688726978.75 0.26339313 0.7389071 -0.064182155 0.05180686 -0.064161941 0.051684394 0.60512125 0.63315308
3688727525.625 0.26327023 0.7387507 -0.064142615 0.051749602 -0.064048693 0.05178488 0.60562408 0.63314658
3688728072.5 0.26330113 0.73888761 -0.064189665 0.051815066 -0.064164847 0.051754232 0.60520774 0.63289797
3688728619.375 0.26343346 0.73889023 -0.064073548 0.051968772 -0.064276218 0.051591668 0.60524362 0.63294303
3688729166.25 0.26331219 0.73877996 -0.064099275 0.051874738 -0.06416139 0.051684398 0.60498428 0.63277555
3688729713.125 0.26314959 0.73886609 -0.064112194 0.051882334 -0.06414137 0.051592935 0.60607797 0.63285208
3688730260 0.26333606 0.73859578 -0.064245678 0.051829167 -0.064258575 0.051866494 0.60521811 0.63291276
3688730806.875 0.26294583 0.73884571 -0.064171076 0.051940501 -0.064187415 0.051836155 0.60565698 0.63304538
3688731353.75 0.26325184 0.73893654 -0.064095184 0.051784173 -0.064235032 0.051830579 0.60544384 0.63240951
3688731900.625 0.2630069 0.73896909 -0.064154498 0.051879782 -0.06433817 0.051884264 0.60575932 0.63260716
3688732447.5 0.26348707 0.73890764 -0.064236224 0.051912084 -0.064370006 0.052029297 0.60571337 0.63275415
3688732994.375 0.26348615 0.73905939 -0.064174928 0.051863495 -0.064237721 0.051893219 0.60581177 0.63270622
3688733541.25 0.26333213 0.73855406 -0.064275526 0.051839128 -0.064391263 0.051902227 0.60596722 0.63281667
3688734088.125 0.26338217 0.73856461 -0.064278156 0.05194534 -0.064175338 0.051908121 0.60580844 0.63277733
3688734635 0.26363847 0.7385661 -0.064297602 0.05185613 -0.064151652 0.051893413 0.60565382 0.63244611
3688735181.875 0.26333514 0.73838031 -0.064219773 0.051859178 -0.064310819 0.051820811 0.60519046 0.63261801
3688735728.75 0.26268443 0.73868513 -0.064309441 0.051786717 -0.064294383 0.051894493 0.6054787 0.63249141
3688736275.625 0.26329803 0.73843127 -0.064278342 0.051891111 -0.064289555 0.051942233 0.60563934 0.63260102
3688736822.5 0.26320094 0.73839623 -0.064275391 0.051873822 -0.064212672 0.052008938 0.60572273 0.63251901
3688737369.375 0.26338074 0.73796797 -0.06423831 0.051988132 -0.064094596 0.051906407 0.60551357 0.63305002
3688737916.25 0.26360771 0.73850697 -0.064323731 0.05196571 -0.064365789 0.05193096 0.60591185 0.63247716
3688738463.125 0.26343057 0.73859292 -0.064343691 0.051899068 -0.064220056 0.051906753 0.60579121 0.63260448
3688739010 0.26332515 0.73863608 -0.064089142 0.052015111 -0.064185902 0.051921371 0.60537541 0.63280696
3688739556.875 0.26341796 0.73855996 -0.064368822 0.05210558 -0.064350829 0.05201675 0.60610795 0.63239771
3688740103.75 0.26332715 0.73873562 -0.064344816 0.052079629 -0.064329974 0.052194357 0.60608983 0.63288468
3688740650.625 0.26320887 0.73870075 -0.064202867 0.05221064 -0.064307585 0.052106902 0.60611796 0.63268864
3688741197.5 0.26344678 0.73817974 -0.064308964 0.052018948 -0.064315185 0.052161846 0.60558039 0.63268811
3688741744.375 0.26346308 0.73868972 -0.064339593 0.05191052 -0.064348385 0.052120242 0.60568219 0.63303119
3688742291.25 0.26296848 0.73857623 -0.064446136 0.051966131 -0.064227134 0.052135903 0.60563225 0.63248903
3688742838.125 0.26343173 0.73841411 -0.064403623 0.052099369 -0.064372919 0.052186836 0.6057567 0.6327399
3688743385 0.2634584 0.73863173 -0.06438949 0.052110847 -0.06452892 0.052151687 0.60616016 0.63263428
3688743931.875 0.26344401 0.73875147 -0.064336635 0.05207758 -0.064283423 0.05219895 0.60629481 0.63232535
3688744478.75 0.26336437 0.73881114 -0.064435415 0.052051391 -0.064407125 0.052163672 0.60607332 0.63263613
3688745025.625 0.26354551 0.73837614 -0.064398818 0.052192949 -0.064226456 0.052062578 0.6056729 0.63255566
3688745572.5 0.26328561 0.7383824 -0.064356931 0.05214569 -0.064349741 0.052119508 0.60604191 0.63233846
3688746119.375 0.26327252 0.73846388 -0.064421929 0.052152731 -0.064383902 0.052124105 0.60586727 0.63218224
3688746666.25 0.26302865 0.73865527 -0.064447701 0.05206367 -0.064269334 0.052083287 0.60562855 0.63193274
3688747213.125 0.26340723 0.73846763 -0.064463921 0.052223757 -0.06445457 0.052093219 0.6061151 0.63213414
3688747760 0.26355481 0.73858994 -0.064657137 0.05222854 -0.06446407 0.052137148 0.60594928 0.63263178
3688748306.875 0.26358002 0.73853731 -0.064554371 0.052213896 -0.064520545 0.052128222 0.60621154 0.63261163
3688748853.75 0.26355618 0.73856658 -0.064385496 0.052068628 -0.064459339 0.052028891 0.60597497 0.63253492
3688749400.625 0.26351935 0.73839903 -0.064429596 0.052245032 -0.06445045 0.052037921 0.60603607 0.63277471
3688749947.5 0.26339811 0.73832148 -0.064362757 0.052260973 -0.064408287 0.052192733 0.60645533 0.63242173
3688750494.375 0.26342633 0.73847628 -0.06452667 0.052112494 -0.064376585 0.052111141 0.60611039 0.63227534
3688751041.25 0.26385653 0.73804277 -0.064452104 0.052237529 -0.064411677 0.052158199 0.60652214 0.63199472
3688751588.125 0.26339442 0.73806167 -0.064492665 0.052304819 -0.064539172 0.052261762 0.60659069 0.63216054
3688752135 0.26356789 0.73820841 -0.064648241 0.052353371 -0.064409509 0.052191578 0.60623181 0.63223535
3688752681.875 0.26349089 0.73804986 -0.06458234 0.052207626 -0.064505063 0.05225404 0.60599244 0.63253784
3688753228.75 0.26369363 0.738397 -0.064535089 0.052316226 -0.064422391 0.052322876 0.6062535 0.63227344
3688753775.625 0.2632381 0.73826814 -0.064547278 0.052265655 -0.064348675 0.052221857 0.60616368 0.63254291
3688754322.5 0.2635054 0.73842621 -0.064463854 0.052396175 -0.064569302 0.052319724 0.60660338 0.6324324
3688754869.375 0.26361308 0.7382797 -0.064539164 0.052186806 -0.06449125 0.052287579 0.60624474 0.63230634
3688755416.25 0.26372257 0.7382735 -0.064522691 0.052168958 -0.064525507 0.052235406 0.60659575 0.63241786
3688755963.125 0.26353121 0.7380017 -0.064462088 0.052326713 -0.06451004 0.052095462 0.60647786 0.6317336
3688756510 0.26358634 0.73875821 -0.064556099 0.052342176 -0.064595357 0.052226964 0.60630596 0.63218653
3688757056.875 0.26334429 0.73861378 -0.064449377 0.052288946 -0.064586304 0.052290987 0.60640013 0.63215041
3688757603.75 0.2632598 0.73821986 -0.064490758 0.05236413 -0.064581677 0.052133601 0.60628569 0.63233525
3688758150.625 0.26345709 0.73828244 -0.064574137 0.052448165 -0.064570673 0.052329347 0.60647458 0.63249147
3688758697.5 0.26385415 0.73852324 -0.064612702 0.052455992 -0.064300433 0.052426979 0.60648406 0.63212234
3688759244.375 0.26387194 0.73841643 -0.064515881 0.052416824 -0.064652257 0.052377619 0.60635263 0.63227284
3688759791.25 0.26367259 0.73819125 -0.0645409 0.052447937 -0.06452617 0.052328881 0.60629201 0.63266885
3688760338.125 0.26282993 0.73842686 -0.06450408 0.052304808 -0.064387105 0.052522451 0.6062572 0.63210201
3688760885 0.26327544 0.73867214 -0.064516589 0.052379128 -0.064635113 0.052335564 0.60679978 0.6319918
3688761431.875 0.26397729 0.73853773 -0.064619318 0.052548073 -0.064657532 0.052574035 0.60617709 0.6324057
3688761978.75 0.26345691 0.73840588 -0.064690284 0.052265968 -0.064646438 0.052460101 0.60644829 0.63188273
3688762525.625 0.26333824 0.73832369 -0.064628355 0.052384116 -0.064614423 0.052443024 0.60619694 0.63208967
3688763072.5 0.26339716 0.73820835 -0.064550392 0.052352171 -0.064477503 0.052433036 0.60671526 0.63216203
3688763619.375 0.26382384 0.73828894 -0.064631455 0.052397702 -0.064693242 0.052423563 0.60668808 0.63229185
3688764166.25 0.26355103 0.73810619 -0.06441804 0.05240408 -0.064645953 0.052556612 0.60661274 0.63219303
3688764713.125 0.26389697 0.73788995 -0.064537138 0.052489091 -0.064733207 0.052188199 0.60631031 0.63185316
3688765260 0.26345789 0.73800802 -0.064666167 0.052551053 -0.064574987 0.052518316 0.60676062 0.63216567
3688765806.875 0.26385358 0.73786861 -0.064607807 0.052421272 -0.06463436 0.052361459 0.6066376 0.63200837
3688766353.75 0.26345497 0.73828691 -0.064699084 0.052531764 -0.064707778 0.052498393 0.60630405 0.63221198
3688766900.625 0.26365107 0.73847121 -0.064690202 0.052378114 -0.06464982 0.052610636 0.60678625 0.63192588
3688767447.5 0.26362047 0.73769224 -0.064698674 0.052546725 -0.06466081 0.052670807 0.60675663 0.63182306
3688767994.375 0.26354378 0.73810375 -0.064591087 0.052343041 -0.064590581 0.052558038 0.60654736 0.63222086
3688768541.25 0.26365322 0.7380622 -0.064677797 0.05254969 -0.064695284 0.052491676 0.60630518 0.63159043
3688769088.125 0.26349482 0.73797661 -0.064643688 0.052435894 -0.064749904 0.05253005 0.60624909 0.63190436
3688769635 0.26399419 0.73819429 -0.064619385 0.05255923 -0.064773016 0.052650359 0.60662031 0.63185483
3688770181.875 0.26358846 0.73807782 -0.064624928 0.052479863 -0.064774007 0.052466147 0.60667247 0.63191301
3688770728.75 0.26369524 0.73783165 -0.064657681 0.052446045 -0.064844385 0.052575015 0.60681635 0.63200086
3688771275.625 0.26400879 0.73758465 -0.064593926 0.052616708 -0.06466268 0.052565098 0.60670483 0.63214141
3688771822.5 0.2638309 0.73777717 -0.064690068 0.052628547 -0.064750522 0.052555948 0.60662192 0.63225579
3688772369.375 0.26357886 0.73806095 -0.064781591 0.052541483 -0.064664721 0.052498516 0.60624641 0.631953
3688772916.25 0.26391745 0.73817384 -0.064671114 0.052530944 -0.064676613 0.052512333 0.60638267 0.63177818
3688773463.125 0.26375365 0.73816258 -0.064664483 0.052722991 -0.064716302 0.052673105 0.60633898 0.63095796
3688774010 0.26389784 0.73786306 -0.064726144 0.052663848 -0.064718649 0.052835763 0.6062218 0.63132405
3688774556.875 0.26364592 0.73774201 -0.064574279 0.052531868 -0.064808816 0.05274915 0.60590392 0.63166571
3688775103.75 0.26397398 0.73814458 -0.064593785 0.052590404 -0.064769164 0.05267923 0.60619724 0.63116574
3688775650.625 0.26390323 0.73815709 -0.064722605 0.052616801 -0.06465555 0.052682906 0.6058476 0.63138103
3688776197.5 0.26385155 0.73806947 -0.064617805 0.05276639 -0.064688198 0.052600481 0.60623389 0.63159424
3688776744.375 0.26431593 0.73807389 -0.064615048 0.052702859 -0.064527906 0.052598789 0.6059829 0.63137853
3688777291.25 0.26409563 0.73802763 -0.064643502 0.052819826 -0.064775988 0.052676294 0.60592854 0.63179493
3688777838.125 0.26411721 0.73818594 -0.064858422 0.052774239 -0.064806171 0.052659757 0.60582411 0.63209343
3688778385 0.26404679 0.73803973 -0.064835131 0.052798748 -0.064793564 0.052553367 0.60579664 0.63151312
3688778931.875 0.26387253 0.73767865 -0.064664938 0.05279123 -0.064637847 0.052872315 0.60598671 0.63147503
3688779478.75 0.26399809 0.73824894 -0.064713292 0.052701078 -0.064692765 0.052850042 0.60657161 0.63101417
3688780025.625 0.26445433 0.73806214 -0.064760178 0.052731436 -0.064806379 0.052828386 0.60654688 0.63110828
3688780572.5 0.26385731 0.73781037 -0.064672045 0.052837625 -0.064749606 0.052732117 0.60647297 0.6316368
3688781119.375 0.26407543 0.73788387 -0.064612105 0.052962862 -0.064778872 0.052851405 0.60635519 0.63149559
