!Agilent Technologies,N5221A,MY51411109,A.09.90.13
!Agilent N5221A: A.09.90.13
!Date: Wednesday, April 20, 2022 13:13:07
!Correction: S11(Full 1 Port(1)) 
!S1P File: Measurement: S11:
# Hz S  RI   R 50
2478531231 0.6663422 0.73511523
2478531281 0.66704333 0.73551768
2478531331 0.66731697 0.73415405
2478531381 0.66731739 0.7339595
2478531431 0.66640586 0.73408782
2478531481 0.66741055 0.73415184
2478531531 0.66719949 0.73385364
2478531581 0.66689509 0.73437446
2478531631 0.66692328 0.73435229
2478531681 0.66723895 0.73428679
2478531731 0.66716647 0.73424542
2478531781 0.66741264 0.7351684
2478531831 0.66703504 0.73373723
2478531881 0.66657239 0.73422593
2478531931 0.66736013 0.73455995
2478531981 0.66770095 0.7345041
2478532031 0.66734797 0.73447555
2478532081 0.66695809 0.73423237
2478532131 0.66737449 0.73459595
2478532181 0.66653895 0.73497462
2478532231 0.66720182 0.73458797
2478532281 0.66734654 0.73445427
2478532331 0.6668604 0.73418462
2478532381 0.66737288 0.73458135
2478532431 0.66677445 0.73422772
2478532481 0.66696739 0.73369861
2478532531 0.66757929 0.73409861
2478532581 0.66723174 0.73401904
2478532631 0.66693091 0.734828
2478532681 0.66742522 0.73404318
2478532731 0.66702396 0.73433805
2478532781 0.66729134 0.73478532
2478532831 0.6668517 0.73457718
2478532881 0.66711134 0.73427224
2478532931 0.66738504 0.73444921
2478532981 0.66704488 0.73397309
2478533031 0.66628414 0.73571968
2478533081 0.66760957 0.73452204
2478533131 0.66764826 0.73455274
2478533181 0.66711289 0.73451704
2478533231 0.66735411 0.73504412
2478533281 0.66715461 0.73539525
2478533331 0.6670388 0.73492986
2478533381 0.66708851 0.73464525
2478533431 0.66745585 0.73430568
2478533481 0.66724092 0.73473066
2478533531 0.66674238 0.7345342
2478533581 0.6665954 0.734249
2478533631 0.66684419 0.73479027
2478533681 0.66719246 0.73452318
2478533731 0.66701657 0.73407513
2478533781 0.66701031 0.7341603
2478533831 0.66722238 0.73437595
2478533881 0.66697282 0.73461038
2478533931 0.66735268 0.7343446
2478533981 0.66641337 0.73397243
2478534031 0.66687745 0.73447484
2478534081 0.66782963 0.73459482
2478534131 0.66686845 0.73405904
2478534181 0.66765398 0.73426533
2478534231 0.66752607 0.73421502
2478534281 0.66803515 0.73422593
2478534331 0.66777194 0.73417544
2478534381 0.66760516 0.73485684
2478534431 0.66718322 0.73481488
2478534481 0.66689539 0.73504436
2478534531 0.66712153 0.7349264
2478534581 0.66740215 0.73442829
2478534631 0.66763246 0.73456526
2478534681 0.66753399 0.73480403
2478534731 0.66805238 0.73427445
2478534781 0.66765553 0.73495847
2478534831 0.66759908 0.7348308
2478534881 0.66753519 0.73529953
2478534931 0.6672684 0.73501915
2478534981 0.6669572 0.73449689
2478535031 0.66640651 0.73431426
2478535081 0.66718072 0.73434466
2478535131 0.66709161 0.73455161
2478535181 0.6672321 0.73426968
2478535231 0.66714525 0.73416948
2478535281 0.6672051 0.73465651
2478535331 0.66738158 0.73480654
2478535381 0.66691554 0.7345084
2478535431 0.6673277 0.73488206
2478535481 0.66747183 0.73386562
2478535531 0.66700649 0.73436677
2478535581 0.6677258 0.73445165
2478535631 0.66728228 0.73499489
2478535681 0.66694242 0.73474729
2478535731 0.66734129 0.73465002
2478535781 0.66682625 0.734604
2478535831 0.66777676 0.73505813
2478535881 0.66741925 0.73455775
2478535931 0.66736853 0.73496318
2478535981 0.66743946 0.73465365
2478536031 0.66672742 0.73435289
2478536081 0.66763645 0.73530054
2478536131 0.66791219 0.73450232
2478536181 0.66745239 0.73463607
2478536231 0.66739368 0.73464572
2478536281 0.66681647 0.73449504
2478536331 0.66667867 0.73467702
2478536381 0.66749173 0.7338928
2478536431 0.66747552 0.73463762
2478536481 0.66659939 0.73422545
2478536531 0.66637081 0.73461533
2478536581 0.66723663 0.7347191
2478536631 0.66705084 0.73434204
2478536681 0.66749358 0.73513579
2478536731 0.66651917 0.73472208
2478536781 0.66672325 0.73545933
2478536831 0.66757721 0.7350378
2478536881 0.66749197 0.73555148
2478536931 0.66762853 0.73559958
2478536981 0.66748035 0.73532784
2478537031 0.66719043 0.73509693
2478537081 0.66743124 0.73477668
2478537131 0.66839767 0.73503751
2478537181 0.6670419 0.73458773
2478537231 0.66786766 0.73469603
2478537281 0.66753465 0.73537844
2478537331 0.66752046 0.73523432
2478537381 0.66762513 0.73554456
2478537431 0.668221 0.73529452
2478537481 0.66699284 0.73488307
2478537531 0.66670138 0.73517817
2478537581 0.66776729 0.73504102
2478537631 0.66741002 0.73516566
2478537681 0.66685128 0.73581553
2478537731 0.66775441 0.73520541
2478537781 0.66755569 0.73567712
2478537831 0.66676605 0.73498929
2478537881 0.66788125 0.73492217
2478537931 0.66743869 0.73505694
2478537981 0.66711354 0.7351253
2478538031 0.66719323 0.73540139
2478538081 0.66705889 0.73520678
2478538131 0.66733122 0.73467678
2478538181 0.66724479 0.73476672
2478538231 0.66778666 0.73438358
2478538281 0.66810155 0.73412299
2478538331 0.66711354 0.73457682
2478538381 0.6665833 0.73466504
2478538431 0.66719383 0.73526216
2478538481 0.66696525 0.73457289
2478538531 0.66764563 0.73553097
2478538581 0.66713834 0.73478502
2478538631 0.66761625 0.73577732
2478538681 0.66772258 0.73443151
2478538731 0.66679019 0.73500502
2478538781 0.66686732 0.73536891
2478538831 0.66744381 0.73539364
2478538881 0.66681045 0.73465067
2478538931 0.66736495 0.73430169
2478538981 0.66781628 0.7347945
2478539031 0.66704893 0.73481208
2478539081 0.66737479 0.73584956
2478539131 0.66725868 0.73459351
2478539181 0.66725904 0.73478472
2478539231 0.66723192 0.73532051
2478539281 0.66706681 0.73510051
2478539331 0.66645753 0.7341401
2478539381 0.66683042 0.73502558
2478539431 0.66730142 0.73486745
2478539481 0.66687775 0.73472124
2478539531 0.66726017 0.73501176
2478539581 0.66704416 0.73441666
2478539631 0.66722429 0.73468029
2478539681 0.66843468 0.73441046
2478539731 0.6676122 0.7349999
2478539781 0.66717964 0.73509443
2478539831 0.66703761 0.73560894
2478539881 0.66682124 0.73486906
2478539931 0.66723835 0.73450106
2478539981 0.66704905 0.73437655
2478540031 0.66742927 0.7348792
2478540081 0.6674602 0.73515373
2478540131 0.66721308 0.7352519
2478540181 0.66643435 0.73504192
2478540231 0.66697419 0.7351566
2478540281 0.66665608 0.73440051
2478540331 0.66719043 0.73509789
2478540381 0.66684985 0.73461795
2478540431 0.6671837 0.73408669
2478540481 0.66708547 0.73425484
2478540531 0.66739255 0.73413944
2478540581 0.66671097 0.73510164
2478540631 0.66751671 0.73424244
2478540681 0.66744214 0.73453575
2478540731 0.66722947 0.73507732
2478540781 0.66764617 0.7344169
2478540831 0.6671229 0.73478591
2478540881 0.66708487 0.73531938
2478540931 0.66768873 0.73560172
2478540981 0.66702133 0.7353723
2478541031 0.6669687 0.7347151
2478541081 0.66728801 0.73452663
2478541131 0.667328 0.73479772
2478541181 0.6673274 0.73423767
2478541231 0.66722 0.73510581
2478541281 0.66758901 0.73504531
2478541331 0.66743672 0.73487151
2478541381 0.6673227 0.73477334
2478541431 0.66662943 0.7350986
2478541481 0.6672523 0.73494107
2478541531 0.66771072 0.73528004
2478541581 0.66645032 0.73530132
2478541631 0.66675091 0.73524982
2478541681 0.66658795 0.73448735
2478541731 0.66674131 0.73473376
2478541781 0.66755158 0.73446018
2478541831 0.66732419 0.73540038
2478541881 0.66704637 0.73439586
2478541931 0.66766238 0.73468733
2478541981 0.66740084 0.73477548
2478542031 0.66676152 0.73484761
2478542081 0.66698158 0.73402226
2478542131 0.66661739 0.73408163
2478542181 0.66707212 0.73532665
2478542231 0.66712809 0.73432583
2478542281 0.6677177 0.73452455
2478542331 0.66731578 0.73510122
2478542381 0.66656721 0.73528206
2478542431 0.66678417 0.73587227
2478542481 0.66691887 0.73451167
2478542531 0.66726875 0.7344107
2478542581 0.66685081 0.73453134
2478542631 0.66692692 0.73408443
2478542681 0.66701096 0.73424464
2478542731 0.66682994 0.73472762
2478542781 0.66658551 0.73462117
2478542831 0.66675705 0.73432755
2478542881 0.66741556 0.73495024
2478542931 0.66713446 0.73454505
2478542981 0.66671497 0.73466951
2478543031 0.6669594 0.73434466
2478543081 0.6665383 0.73472476
2478543131 0.66745478 0.73446387
2478543181 0.66726887 0.73407918
2478543231 0.66654891 0.73475748
2478543281 0.66681689 0.73521048
2478543331 0.66743714 0.7342422
2478543381 0.66712683 0.73432761
2478543431 0.66690934 0.7339164
2478543481 0.66696721 0.73466879
2478543531 0.66631895 0.73457175
2478543581 0.66683221 0.73436445
2478543631 0.6669929 0.73391163
2478543681 0.66659963 0.73445094
2478543731 0.6672551 0.73490918
2478543781 0.66727614 0.73427558
2478543831 0.66728777 0.73468506
2478543881 0.66675866 0.73447663
2478543931 0.66707665 0.7345413
2478543981 0.66751462 0.73454148
2478544031 0.66716528 0.73452646
2478544081 0.66740507 0.73488605
2478544131 0.66719162 0.73453313
2478544181 0.66755074 0.73432541
2478544231 0.66731781 0.73437256
2478544281 0.66698062 0.73485345
2478544331 0.66843021 0.73491144
2478544381 0.66638118 0.73506665
2478544431 0.66695428 0.73471111
2478544481 0.6667558 0.73375094
2478544531 0.66700357 0.73415101
2478544581 0.66711324 0.734034
2478544631 0.66736829 0.73407412
2478544681 0.66740876 0.73416311
2478544731 0.66723335 0.7349959
2478544781 0.66727078 0.73484194
2478544831 0.66683257 0.73419601
2478544881 0.66674 0.73403758
2478544931 0.66697717 0.73472923
2478544981 0.66717666 0.73416567
2478545031 0.66678619 0.73497486
2478545081 0.66567761 0.7344715
2478545131 0.66694176 0.73485297
2478545181 0.6675669 0.73407972
2478545231 0.66751033 0.73458236
2478545281 0.66762877 0.73487091
2478545331 0.66727126 0.73396343
2478545381 0.66689456 0.7344327
2478545431 0.66709161 0.73466074
2478545481 0.66660053 0.73384321
2478545531 0.66737431 0.73489386
2478545581 0.6676321 0.73476398
2478545631 0.66758668 0.73461759
2478545681 0.66661304 0.73423648
2478545731 0.66662693 0.73495436
2478545781 0.66727453 0.73479825
2478545831 0.66774321 0.73450756
2478545881 0.66726524 0.73421717
2478545931 0.66766232 0.73430711
2478545981 0.66717696 0.73385167
2478546031 0.66705745 0.73422831
2478546081 0.66646349 0.73412192
2478546131 0.66680521 0.73437393
2478546181 0.66638815 0.73331678
2478546231 0.66676044 0.73446733
2478546281 0.66648304 0.73442167
2478546331 0.66788894 0.73457748
2478546381 0.66669846 0.7341184
2478546431 0.66729218 0.7338798
2478546481 0.66725022 0.73408312
2478546531 0.667292 0.73410875
2478546581 0.6668393 0.73449934
2478546631 0.66731137 0.73466033
2478546681 0.66689414 0.73418444
2478546731 0.66716754 0.73457646
2478546781 0.6667071 0.73390454
2478546831 0.66684312 0.73414886
2478546881 0.6670329 0.73403072
2478546931 0.66633534 0.73412675
2478546981 0.66717184 0.73364055
2478547031 0.66736341 0.7342267
2478547081 0.66723102 0.73472822
2478547131 0.66717148 0.73393589
2478547181 0.66645765 0.73418456
2478547231 0.66660619 0.73407084
2478547281 0.66679549 0.73442757
2478547331 0.66687316 0.73396963
2478547381 0.66681349 0.73443568
2478547431 0.66705382 0.73444724
2478547481 0.66683942 0.73427051
2478547531 0.66702646 0.73393983
2478547581 0.66697252 0.73387176
2478547631 0.66721135 0.73471463
2478547681 0.66730911 0.73369312
2478547731 0.6669333 0.73449731
2478547781 0.66716063 0.73365223
2478547831 0.6672411 0.73491395
2478547881 0.66686004 0.73464561
2478547931 0.66717559 0.73468864
2478547981 0.66594064 0.73380256
2478548031 0.66627103 0.73453796
2478548081 0.66743803 0.73409569
2478548131 0.66693926 0.73327005
2478548181 0.66672146 0.73421913
2478548231 0.66653335 0.73314261
2478548281 0.66608584 0.7340222
2478548331 0.66709685 0.73415327
2478548381 0.66724175 0.73394728
2478548431 0.66661489 0.73353547
2478548481 0.6669628 0.73410332
2478548531 0.66667926 0.73398489
2478548581 0.66648269 0.73407727
2478548631 0.66693228 0.73409277
2478548681 0.66715693 0.73427325
2478548731 0.66644496 0.73413283
2478548781 0.66661835 0.73415297
2478548831 0.66704744 0.73423916
2478548881 0.66704828 0.73454559
2478548931 0.6668269 0.73440886
2478548981 0.6671418 0.73418528
2478549031 0.66653603 0.73442382
2478549081 0.66625077 0.73490375
2478549131 0.66646296 0.7343297
2478549181 0.66672218 0.73375386
2478549231 0.66762847 0.73370987
2478549281 0.66741174 0.73407674
2478549331 0.66675532 0.73416311
2478549381 0.66701311 0.73365575
2478549431 0.66660976 0.73375815
2478549481 0.66662133 0.73447835
2478549531 0.66654807 0.73398638
2478549581 0.66558945 0.73427659
2478549631 0.66670269 0.73362142
2478549681 0.66689152 0.73415667
2478549731 0.66714567 0.73358375
2478549781 0.66725349 0.73409623
2478549831 0.66728675 0.73404062
2478549881 0.66659069 0.73416752
2478549931 0.66648841 0.73374653
2478549981 0.66697019 0.73441005
2478550031 0.66715658 0.73419398
2478550081 0.6666767 0.73379737
2478550131 0.6662094 0.73395252
2478550181 0.66678709 0.73329276
2478550231 0.66696376 0.73361552
2478550281 0.66708791 0.73373413
2478550331 0.66722983 0.73352575
2478550381 0.66696912 0.73524505
2478550431 0.66705662 0.73412049
2478550481 0.66715211 0.73359334
2478550531 0.66735196 0.73417252
2478550581 0.66662329 0.73341423
2478550631 0.66720557 0.73387736
2478550681 0.66737509 0.73367172
2478550731 0.66706145 0.73351312
2478550781 0.66697961 0.73424178
2478550831 0.66759586 0.73377872
2478550881 0.66769838 0.73391867
2478550931 0.66760433 0.73373002
2478550981 0.66706413 0.73368543
2478551031 0.66715181 0.73397964
2478551081 0.66726536 0.73374587
2478551131 0.66757482 0.73388559
2478551181 0.66610128 0.73425871
2478551231 0.66681653 0.73449022
2478551281 0.66711605 0.73443264
2478551331 0.66698146 0.73453647
2478551381 0.66680944 0.73370391
2478551431 0.66659701 0.73418617
2478551481 0.66651767 0.73419011
2478551531 0.66648346 0.73357528
2478551581 0.66692948 0.73359871
2478551631 0.66691709 0.73403633
2478551681 0.66741496 0.73407984
2478551731 0.66680634 0.73411375
2478551781 0.66791356 0.73387754
2478551831 0.66711265 0.73461813
2478551881 0.66675705 0.73436207
2478551931 0.66655833 0.73400462
2478551981 0.66682959 0.73390687
2478552031 0.66687936 0.73408389
2478552081 0.66756457 0.73438418
2478552131 0.66710335 0.73406988
2478552181 0.66723382 0.73431253
2478552231 0.66699284 0.73407435
2478552281 0.6673249 0.73379642
2478552331 0.66647089 0.73337972
2478552381 0.66694313 0.73382026
2478552431 0.66750926 0.73410773
2478552481 0.66773152 0.73323727
2478552531 0.66640186 0.73432076
2478552581 0.66730887 0.73452133
2478552631 0.6675427 0.73355097
2478552681 0.66758853 0.73369795
2478552731 0.66750026 0.73463327
2478552781 0.66688997 0.73413986
2478552831 0.66680056 0.73386306
2478552881 0.66759098 0.73372716
2478552931 0.66746253 0.7339021
2478552981 0.66721314 0.73383301
2478553031 0.66667289 0.73424232
2478553081 0.66719431 0.73357022
2478553131 0.66715562 0.73351705
2478553181 0.66765201 0.73339838
2478553231 0.66692865 0.73381132
2478553281 0.66663152 0.73367512
2478553331 0.66721672 0.73357987
2478553381 0.66685987 0.73414278
2478553431 0.66651016 0.73375291
2478553481 0.6671465 0.73364133
2478553531 0.66631746 0.73385364
2478553581 0.66647655 0.73357189
2478553631 0.66727602 0.73362327
2478553681 0.66697931 0.73419178
2478553731 0.66718 0.73452628
2478553781 0.66680592 0.73497719
2478553831 0.66778916 0.73417693
2478553881 0.66732812 0.73314971
2478553931 0.66749632 0.73292059
2478553981 0.66736877 0.73364848
2478554031 0.66700733 0.73425883
2478554081 0.66684097 0.73445958
2478554131 0.66732806 0.73405999
2478554181 0.66639769 0.73416662
2478554231 0.66813308 0.73373646
2478554281 0.66731906 0.73403758
2478554331 0.66696155 0.73394388
2478554381 0.66719502 0.73408663
2478554431 0.66693902 0.73424083
2478554481 0.66697973 0.7340436
2478554531 0.66786861 0.73424643
2478554581 0.66680169 0.73474854
2478554631 0.66697949 0.73411185
2478554681 0.66675889 0.73397666
2478554731 0.66751862 0.73400873
2478554781 0.66745847 0.7342509
2478554831 0.66723943 0.73383808
2478554881 0.66715723 0.73347569
2478554931 0.66684455 0.7341814
2478554981 0.66746461 0.73453265
2478555031 0.66757727 0.73409468
2478555081 0.66732812 0.73445177
2478555131 0.66752297 0.73468572
2478555181 0.66691995 0.73471451
2478555231 0.66700274 0.73351324
2478555281 0.66705257 0.73451495
2478555331 0.66712177 0.73424911
2478555381 0.66685754 0.73352462
2478555431 0.66739702 0.73430544
2478555481 0.66725254 0.73426181
2478555531 0.66765195 0.7337938
2478555581 0.66751522 0.73433453
2478555631 0.66749763 0.73488295
2478555681 0.66702425 0.73413956
2478555731 0.66754377 0.73330021
2478555781 0.66789454 0.73374861
2478555831 0.66721892 0.73482507
2478555881 0.66683328 0.73465455
2478555931 0.66685677 0.73399454
2478555981 0.66675007 0.73407882
2478556031 0.66742229 0.73421335
2478556081 0.66753501 0.73420942
2478556131 0.6672439 0.73439956
2478556181 0.66742504 0.73357397
2478556231 0.66725403 0.7339685
2478556281 0.66723508 0.73396325
2478556331 0.66747838 0.73433459
2478556381 0.66727406 0.73399389
2478556431 0.66731977 0.73350954
2478556481 0.66819996 0.73389411
2478556531 0.66724771 0.73485839
2478556581 0.66814017 0.73381126
2478556631 0.66823149 0.73449755
2478556681 0.66814095 0.73407263
2478556731 0.66754347 0.73425734
2478556781 0.66690212 0.7338379
2478556831 0.66756558 0.73445117
2478556881 0.66765881 0.7340067
2478556931 0.66769689 0.73403811
2478556981 0.6678614 0.73372632
2478557031 0.66803503 0.73411435
2478557081 0.66778564 0.73346716
2478557131 0.66799676 0.73445022
2478557181 0.66749895 0.73406047
2478557231 0.66754031 0.7342
2478557281 0.66750401 0.73375732
2478557331 0.66750097 0.73396432
2478557381 0.66781497 0.73358727
2478557431 0.66804403 0.73347735
2478557481 0.66737348 0.73309559
2478557531 0.66821694 0.73310924
2478557581 0.66776425 0.73368245
2478557631 0.6670391 0.73407841
2478557681 0.66683209 0.73394626
2478557731 0.66765147 0.73317528
2478557781 0.66776776 0.73409927
2478557831 0.66779065 0.7339595
2478557881 0.66841096 0.73435199
2478557931 0.66832191 0.73439509
2478557981 0.66698688 0.73466474
2478558031 0.66719717 0.73416269
2478558081 0.6672737 0.734312
2478558131 0.66727227 0.73346174
2478558181 0.66685772 0.73356467
2478558231 0.66730249 0.73404819
2478558281 0.66718388 0.73337406
2478558331 0.66752034 0.7329157
2478558381 0.66687942 0.73332804
2478558431 0.66739929 0.73346943
2478558481 0.66769081 0.73413807
2478558531 0.66758227 0.733917
2478558581 0.66742384 0.73431438
2478558631 0.66728681 0.73420572
2478558681 0.66691804 0.73403442
2478558731 0.66791546 0.73384333
2478558781 0.66703904 0.73401207
2478558831 0.66696399 0.73327327
2478558881 0.66782361 0.73292845
2478558931 0.66744828 0.73318005
2478558981 0.66797453 0.73352438
2478559031 0.66844302 0.733262
2478559081 0.66783798 0.73386639
2478559131 0.66730845 0.73409081
2478559181 0.66816491 0.73274416
2478559231 0.66732943 0.73406821
2478559281 0.66722333 0.73467052
2478559331 0.6668905 0.73452586
2478559381 0.66764021 0.73331565
2478559431 0.66743565 0.73419887
2478559481 0.66708124 0.73395503
2478559531 0.66797698 0.73366356
2478559581 0.66725689 0.73460388
2478559631 0.66714191 0.73412788
2478559681 0.66761976 0.73385602
2478559731 0.66769379 0.73362148
2478559781 0.66717947 0.73413897
2478559831 0.6673668 0.734532
2478559881 0.66784585 0.73441142
2478559931 0.66743016 0.73413908
2478559981 0.66738856 0.7342059
2478560031 0.66764724 0.73426467
2478560081 0.66777146 0.73405623
2478560131 0.66819292 0.73409039
2478560181 0.66785187 0.73439306
2478560231 0.66811085 0.73446012
2478560281 0.66748279 0.73428267
2478560331 0.66719085 0.73351115
2478560381 0.66730702 0.73370802
2478560431 0.66747683 0.73302597
